Freq.	V(out)
1.00000000000000e+000	(-8.30537054312101e-003dB,-1.15833746800349e-002°)
1.02329299228075e+000	(-8.30511813672555e-003dB,-1.18531863913332e-002°)
1.04712854805090e+000	(-8.30485383477776e-003dB,-1.21292828429263e-002°)
1.07151930523761e+000	(-8.30457707665869e-003dB,-1.24118104265230e-002°)
1.09647819614318e+000	(-8.30428727531904e-003dB,-1.27009189438244e-002°)
1.12201845430196e+000	(-8.30398381605621e-003dB,-1.29967616859622e-002°)
1.14815362149688e+000	(-8.30366605519671e-003dB,-1.32994955147842e-002°)
1.17489755493953e+000	(-8.30333331870919e-003dB,-1.36092809460323e-002°)
1.20226443461741e+000	(-8.30298490084048e-003dB,-1.39262822344669e-002°)
1.23026877081238e+000	(-8.30262006251816e-003dB,-1.42506674609615e-002°)
1.25892541179417e+000	(-8.30223802989207e-003dB,-1.45826086216371e-002°)
1.28824955169313e+000	(-8.30183799261525e-003dB,-1.49222817190716e-002°)
1.31825673855641e+000	(-8.30141910214317e-003dB,-1.52698668556301e-002°)
1.34896288259165e+000	(-8.30098046995673e-003dB,-1.56255483289740e-002°)
1.38038426460288e+000	(-8.30052116565692e-003dB,-1.59895147297942e-002°)
1.41253754462275e+000	(-8.30004021499474e-003dB,-1.63619590418222e-002°)
1.44543977074593e+000	(-8.29953659780078e-003dB,-1.67430787441712e-002°)
1.47910838816821e+000	(-8.29900924585691e-003dB,-1.71330759160633e-002°)
1.51356124843621e+000	(-8.29845704053436e-003dB,-1.75321573439912e-002°)
1.54881661891248e+000	(-8.29787881055143e-003dB,-1.79405346313918e-002°)
1.58489319246111e+000	(-8.29727332941764e-003dB,-1.83584243108554e-002°)
1.62181009735893e+000	(-8.29663931279766e-003dB,-1.87860479589677e-002°)
1.65958690743756e+000	(-8.29597541586270e-003dB,-1.92236323138166e-002°)
1.69824365246174e+000	(-8.29528023038909e-003dB,-1.96714093952457e-002°)
1.73780082874937e+000	(-8.29455228179114e-003dB,-2.01296166279064e-002°)
1.77827941003892e+000	(-8.29379002599867e-003dB,-2.05984969671763e-002°)
1.81970085860998e+000	(-8.29299184613469e-003dB,-2.10782990280143e-002°)
1.86208713666287e+000	(-8.29215604916705e-003dB,-2.15692772168232e-002°)
1.90546071796325e+000	(-8.29128086223290e-003dB,-2.20716918663808e-002°)
1.94984459975804e+000	(-8.29036442895349e-003dB,-2.25858093739161e-002°)
1.99526231496888e+000	(-8.28940480542463e-003dB,-2.31119023424076e-002°)
2.04173794466953e+000	(-8.28839995616377e-003dB,-2.36502497251739e-002°)
2.08929613085404e+000	(-8.28734774972311e-003dB,-2.42011369738346e-002°)
2.13796208950223e+000	(-8.28624595421777e-003dB,-2.47648561897200e-002°)
2.18776162394955e+000	(-8.28509223261363e-003dB,-2.53417062788170e-002°)
2.23872113856834e+000	(-8.28388413765611e-003dB,-2.59319931103141e-002°)
2.29086765276777e+000	(-8.28261910681352e-003dB,-2.65360296788599e-002°)
2.34422881531992e+000	(-8.28129445677049e-003dB,-2.71541362705958e-002°)
2.39883291901949e+000	(-8.27990737774877e-003dB,-2.77866406330543e-002°)
2.45470891568503e+000	(-8.27845492752782e-003dB,-2.84338781490378e-002°)
2.51188643150958e+000	(-8.27693402527042e-003dB,-2.90961920145334e-002°)
2.57039578276886e+000	(-8.27534144490052e-003dB,-2.97739334207901e-002°)
2.63026799189538e+000	(-8.27367380831882e-003dB,-3.04674617406328e-002°)
2.69153480392691e+000	(-8.27192757820450e-003dB,-3.11771447191344e-002°)
2.75422870333816e+000	(-8.27009905053108e-003dB,-3.19033586687227e-002°)
2.81838293126445e+000	(-8.26818434673591e-003dB,-3.26464886688508e-002°)
2.88403150312660e+000	(-8.26617940540905e-003dB,-3.34069287703144e-002°)
2.95120922666638e+000	(-8.26407997377843e-003dB,-3.41850822043470e-002°)
3.01995172040201e+000	(-8.26188159860827e-003dB,-3.49813615965852e-002°)
3.09029543251359e+000	(-8.25957961678873e-003dB,-3.57961891860368e-002°)
3.16227766016837e+000	(-8.25716914546028e-003dB,-3.66299970491515e-002°)
3.23593656929628e+000	(-8.25464507162085e-003dB,-3.74832273291217e-002°)
3.31131121482591e+000	(-8.25200204132864e-003dB,-3.83563324705413e-002°)
3.38844156139202e+000	(-8.24923444823222e-003dB,-3.92497754595355e-002°)
3.46736850452531e+000	(-8.24633642185653e-003dB,-4.01640300695080e-002°)
3.54813389233575e+000	(-8.24330181499135e-003dB,-4.10995811126129e-002°)
3.63078054770101e+000	(-8.24012419072657e-003dB,-4.20569246971053e-002°)
3.71535229097172e+000	(-8.23679680879369e-003dB,-4.30365684907095e-002°)
3.80189396320560e+000	(-8.23331261122488e-003dB,-4.40390319901253e-002°)
3.89045144994280e+000	(-8.22966420747286e-003dB,-4.50648467968427e-002°)
3.98107170553496e+000	(-8.22584385861085e-003dB,-4.61145568993944e-002°)
4.07380277804112e+000	(-8.22184346100785e-003dB,-4.71887189622001e-002°)
4.16869383470335e+000	(-8.21765452912853e-003dB,-4.82879026211793e-002°)
4.26579518801592e+000	(-8.21326817747629e-003dB,-4.94126907862473e-002°)
4.36515832240165e+000	(-8.20867510180875e-003dB,-5.05636799509114e-002°)
4.46683592150962e+000	(-8.20386555936137e-003dB,-5.17414805090872e-002°)
4.57088189614874e+000	(-8.19882934819578e-003dB,-5.29467170793246e-002°)
4.67735141287197e+000	(-8.19355578555055e-003dB,-5.41800288366353e-002°)
4.78630092322637e+000	(-8.18803368520284e-003dB,-5.54420698520681e-002°)
4.89778819368445e+000	(-8.18225133368392e-003dB,-5.67335094402331e-002°)
5.01187233627271e+000	(-8.17619646551145e-003dB,-5.80550325149709e-002°)
5.12861383991364e+000	(-8.16985623706621e-003dB,-5.94073399533211e-002°)
5.24807460249771e+000	(-8.16321719945680e-003dB,-6.07911489680683e-002°)
5.37031796370252e+000	(-8.15626526989951e-003dB,-6.22071934889424e-002°)
5.49540873857623e+000	(-8.14898570188937e-003dB,-6.36562245528122e-002°)
5.62341325190348e+000	(-8.14136305391739e-003dB,-6.51390107029970e-002°)
5.75439937337156e+000	(-8.13338115666930e-003dB,-6.66563383979277e-002°)
5.88843655355588e+000	(-8.12502307879860e-003dB,-6.82090124294263e-002°)
6.02559586074356e+000	(-8.11627109090326e-003dB,-6.97978563507556e-002°)
6.16595001861481e+000	(-8.10710662803936e-003dB,-7.14237129147518e-002°)
6.30957344480192e+000	(-8.09751025021556e-003dB,-7.30874445222091e-002°)
6.45654229034654e+000	(-8.08746160120940e-003dB,-7.47899336808147e-002°)
6.60693448007594e+000	(-8.07693936539283e-003dB,-7.65320834748546e-002°)
6.76082975391980e+000	(-8.06592122248978e-003dB,-7.83148180459696e-002°)
6.91830970918935e+000	(-8.05438380020040e-003dB,-8.01390830851871e-002°)
7.07945784384136e+000	(-8.04230262464668e-003dB,-8.20058463365524e-002°)
7.24435960074988e+000	(-8.02965206843511e-003dB,-8.39160981126037e-002°)
7.41310241300916e+000	(-8.01640529629201e-003dB,-8.58708518219746e-002°)
7.58577575029182e+000	(-8.00253420811854e-003dB,-8.78711445094266e-002°)
7.76247116628690e+000	(-7.98800937935821e-003dB,-8.99180374086162e-002°)
7.94328234724279e+000	(-7.97279999859624e-003dB,-9.20126165078795e-002°)
8.12830516164097e+000	(-7.95687380216232e-003dB,-9.41559931293826e-002°)
8.31763771102669e+000	(-7.94019700568102e-003dB,-9.63493045219211e-002°)
8.51138038202374e+000	(-7.92273423238485e-003dB,-9.85937144677534e-002°)
8.70963589956078e+000	(-7.90444843804480e-003dB,-1.00890413903737e-001°)
8.91250938133743e+000	(-7.88530083237760e-003dB,-1.03240621557193e-001°)
9.12010839355907e+000	(-7.86525079674502e-003dB,-1.05645584596796e-001°)
9.33254300796988e+000	(-7.84425579788897e-003dB,-1.08106579298883e-001°)
9.54992586021433e+000	(-7.82227129780794e-003dB,-1.10624911729585e-001°)
9.77237220955808e+000	(-7.79925065911750e-003dB,-1.13201918443090e-001°)
9.99999999999997e+000	(-7.77514504616823e-003dB,-1.15838967196550e-001°)
1.02329299228075e+001	(-7.74990332134507e-003dB,-1.18537457681888e-001°)
1.04712854805090e+001	(-7.72347193657934e-003dB,-1.21298822275132e-001°)
1.07151930523760e+001	(-7.69579481971373e-003dB,-1.24124526803469e-001°)
1.09647819614318e+001	(-7.66681325548438e-003dB,-1.27016071330678e-001°)
1.12201845430196e+001	(-7.63646576088785e-003dB,-1.29974990961222e-001°)
1.14815362149688e+001	(-7.60468795476790e-003dB,-1.33002856663633e-001°)
1.17489755493953e+001	(-7.57141242103078e-003dB,-1.36101276113483e-001°)
1.20226443461741e+001	(-7.53656856568645e-003dB,-1.39271894556644e-001°)
1.23026877081238e+001	(-7.50008246696134e-003dB,-1.42516395693171e-001°)
1.25892541179416e+001	(-7.46187671836197e-003dB,-1.45836502582427e-001°)
1.28824955169313e+001	(-7.42187026437154e-003dB,-1.49233978569942e-001°)
1.31825673855640e+001	(-7.37997822839948e-003dB,-1.52710628236635e-001°)
1.34896288259165e+001	(-7.33611173259908e-003dB,-1.56268298370866e-001°)
1.38038426460288e+001	(-7.29017770917628e-003dB,-1.59908878963964e-001°)
1.41253754462275e+001	(-7.24207870276761e-003dB,-1.63634304229876e-001°)
1.44543977074592e+001	(-7.19171266362765e-003dB,-1.67446553649491e-001°)
1.47910838816820e+001	(-7.13897273079255e-003dB,-1.71347653040250e-001°)
1.51356124843620e+001	(-7.08374700536567e-003dB,-1.75339675651904e-001°)
1.54881661891248e+001	(-7.02591831272109e-003dB,-1.79424743288800e-001°)
1.58489319246111e+001	(-6.96536395384910e-003dB,-1.83605027459738e-001°)
1.62181009735892e+001	(-6.90195544462647e-003dB,-1.87882750555738e-001°)
1.65958690743755e+001	(-6.83555824308116e-003dB,-1.92260187056967e-001°)
1.69824365246174e+001	(-6.76603146352407e-003dB,-1.96739664769017e-001°)
1.73780082874937e+001	(-6.69322757737814e-003dB,-2.01323566089882e-001°)
1.77827941003892e+001	(-6.61699209977539e-003dB,-2.06014329308078e-001°)
1.81970085860998e+001	(-6.53716326136077e-003dB,-2.10814449932959e-001°)
1.86208713666286e+001	(-6.45357166464098e-003dB,-2.15726482058040e-001°)
1.90546071796324e+001	(-6.36603992406873e-003dB,-2.20753039758254e-001°)
1.94984459975804e+001	(-6.27438228916084e-003dB,-2.25896798522152e-001°)
1.99526231496887e+001	(-6.17840424971101e-003dB,-2.31160496719843e-001°)
2.04173794466952e+001	(-6.07790212250776e-003dB,-2.36546937107997e-001°)
2.08929613085403e+001	(-5.97266261840438e-003dB,-2.42058988372599e-001°)
2.13796208950222e+001	(-5.86246238892971e-003dB,-2.47699586710836e-001°)
2.18776162394954e+001	(-5.74706755158273e-003dB,-2.53471737453177e-001°)
2.23872113856833e+001	(-5.62623319252106e-003dB,-2.59378516726633e-001°)
2.29086765276776e+001	(-5.49970284589933e-003dB,-2.65423073160694e-001°)
2.34422881531991e+001	(-5.36720794844949e-003dB,-2.71608629637060e-001°)
2.39883291901948e+001	(-5.22846726838037e-003dB,-2.77938485084416e-001°)
2.45470891568502e+001	(-5.08318630720911e-003dB,-2.84416016319795e-001°)
2.51188643150957e+001	(-4.93105667323374e-003dB,-2.91044679937774e-001°)
2.57039578276885e+001	(-4.77175542552014e-003dB,-2.97828014249076e-001°)
2.63026799189537e+001	(-4.60494438670828e-003dB,-3.04769641270185e-001°)
2.69153480392690e+001	(-4.43026942328309e-003dB,-3.11873268765242e-001°)
2.75422870333815e+001	(-4.24735969190522e-003dB,-3.19142692342424e-001°)
2.81838293126444e+001	(-4.05582684989954e-003dB,-3.26581797606050e-001°)
2.88403150312659e+001	(-3.85526422842896e-003dB,-3.34194562366504e-001°)
2.95120922666637e+001	(-3.64524596648056e-003dB,-3.41985058909778e-001°)
3.01995172040200e+001	(-3.42532610381700e-003dB,-3.49957456328633e-001°)
3.09029543251358e+001	(-3.19503763090994e-003dB,-3.58116022917443e-001°)
3.16227766016837e+001	(-2.95389149386746e-003dB,-3.66465128632850e-001°)
3.23593656929627e+001	(-2.70137555213482e-003dB,-3.75009247622541e-001°)
3.31131121482590e+001	(-2.43695348672421e-003dB,-3.83752960824438e-001°)
3.38844156139201e+001	(-2.16006365676098e-003dB,-3.92700958638906e-001°)
3.46736850452530e+001	(-1.87011790153789e-003dB,-4.01858043676370e-001°)
3.54813389233574e+001	(-1.56650028587337e-003dB,-4.11229133583293e-001°)
3.63078054770100e+001	(-1.24856578580279e-003dB,-4.20819263949155e-001°)
3.71535229097171e+001	(-9.15638911749264e-004dB,-4.30633591297518e-001°)
3.80189396320559e+001	(-5.67012266367766e-004dB,-4.40677396164478e-001°)
3.89045144994279e+001	(-2.01945033649830e-004dB,-4.50956086267353e-001°)
3.98107170553495e+001	(1.80338603739290e-004dB,-4.61475199767662e-001°)
4.07380277804111e+001	(5.80651122473634e-004dB,-4.72240408631612e-001°)
4.16869383470333e+001	(9.99843395579951e-004dB,-4.83257522092096e-001°)
4.26579518801591e+001	(1.43880651227177e-003dB,-4.94532490216225e-001°)
4.36515832240164e+001	(1.89847368437165e-003dB,-5.06071407582690e-001°)
4.46683592150961e+001	(2.37982224380089e-003dB,-5.17880517073458e-001°)
4.57088189614873e+001	(2.88387573530985e-003dB,-5.29966213784444e-001°)
4.67735141287196e+001	(3.41170610923338e-003dB,-5.42335049060302e-001°)
4.78630092322636e+001	(3.96443601891217e-003dB,-5.54993734658531e-001°)
4.89778819368444e+001	(4.54324122804925e-003dB,-5.67949147048392e-001°)
5.01187233627270e+001	(5.14935313309365e-003dB,-5.81208331851014e-001°)
5.12861383991362e+001	(5.78406140661503e-003dB,-5.94778508426145e-001°)
5.24807460249770e+001	(6.44871676708544e-003dB,-6.08667074612850e-001°)
5.37031796370250e+001	(7.14473388161377e-003dB,-6.22881611630877e-001°)
5.49540873857622e+001	(7.87359440793897e-003dB,-6.37429889150165e-001°)
5.62341325190346e+001	(8.63685018249395e-003dB,-6.52319870536189e-001°)
5.75439937337154e+001	(9.43612656173181e-003dB,-6.67559718279790e-001°)
5.88843655355586e+001	(1.02731259241846e-002dB,-6.83157799620227e-001°)
6.02559586074355e+001	(1.11496313412221e-002dB,-6.99122692370533e-001°)
6.16595001861479e+001	(1.20675104247305e-002dB,-7.15463190955755e-001°)
6.30957344480190e+001	(1.30287193604715e-002dB,-7.32188312674215e-001°)
6.45654229034652e+001	(1.40353071363058e-002dB,-7.49307304193092e-001°)
6.60693448007593e+001	(1.50894199748669e-002dB,-7.66829648290873e-001°)
6.76082975391978e+001	(1.61933059809389e-002dB,-7.84765070858480e-001°)
6.91830970918933e+001	(1.73493200141169e-002dB,-8.03123548173855e-001°)
7.07945784384134e+001	(1.85599287980408e-002dB,-8.21915314463387e-001°)
7.24435960074986e+001	(1.98277162779505e-002dB,-8.41150869766181e-001°)
7.41310241300914e+001	(2.11553892390773e-002dB,-8.60840988118179e-001°)
7.58577575029180e+001	(2.25457831990021e-002dB,-8.80996726072280e-001°)
7.76247116628688e+001	(2.40018685876810e-002dB,-9.01629431574611e-001°)
7.94328234724277e+001	(2.55267572297442e-002dB,-9.22750753216348e-001°)
8.12830516164095e+001	(2.71237091443406e-002dB,-9.44372649882848e-001°)
8.31763771102667e+001	(2.87961396787865e-002dB,-9.66507400822182e-001°)
8.51138038202372e+001	(3.05476269929210e-002dB,-9.89167616158630e-001°)
8.70963589956076e+001	(3.23819199121306e-002dB,-1.01236624787679e+000°)
8.91250938133741e+001	(3.43029461681188e-002dB,-1.03611660130434e+000°)
9.12010839355905e+001	(3.63148210472199e-002dB,-1.06043234712342e+000°)
9.33254300796986e+001	(3.84218564675644e-002dB,-1.08532753394314e+000°)
9.54992586021431e+001	(4.06285705071758e-002dB,-1.11081660146759e+000°)
9.77237220955805e+001	(4.29396974066910e-002dB,-1.13691439429623e+000°)
9.99999999999995e+001	(4.53601980715055e-002dB,-1.16363617639644e+000°)
1.02329299228075e+002	(4.78952710997050e-002dB,-1.19099764629118e+000°)
1.04712854805089e+002	(5.05503643635185e-002dB,-1.21901495300683e+000°)
1.07151930523760e+002	(5.33311871737894e-002dB,-1.24770471283162e+000°)
1.09647819614318e+002	(5.62437230585542e-002dB,-1.27708402693629e+000°)
1.12201845430196e+002	(5.92942431887098e-002dB,-1.30717049991480e+000°)
1.14815362149688e+002	(6.24893204858982e-002dB,-1.33798225930616e+000°)
1.17489755493952e+002	(6.58358444492420e-002dB,-1.36953797616345e+000°)
1.20226443461741e+002	(6.93410367406488e-002dB,-1.40185688674080e+000°)
1.23026877081237e+002	(7.30124675699960e-002dB,-1.43495881537570e+000°)
1.25892541179416e+002	(7.68580729246851e-002dB,-1.46886419864887e+000°)
1.28824955169313e+002	(8.08861726903298e-002dB,-1.50359411091084e+000°)
1.31825673855640e+002	(8.51054897125175e-002dB,-1.53917029127277e+000°)
1.34896288259165e+002	(8.95251698529167e-002dB,-1.57561517216402e+000°)
1.38038426460288e+002	(9.41548030958991e-002dB,-1.61295190957047e+000°)
1.41253754462275e+002	(9.90044457658066e-002dB,-1.65120441507549e+000°)
1.44543977074592e+002	(1.04084643919111e-001dB,-1.69039738983471e+000°)
1.47910838816820e+002	(1.09406457979354e-001dB,-1.73055636062821e+000°)
1.51356124843620e+002	(1.14981488687868e-001dB,-1.77170771814502e+000°)
1.54881661891247e+002	(1.20821904447654e-001dB,-1.81387875766832e+000°)
1.58489319246110e+002	(1.26940470143607e-001dB,-1.85709772234369e+000°)
1.62181009735892e+002	(1.33350577527514e-001dB,-1.90139384922831e+000°)
1.65958690743755e+002	(1.40066277262561e-001dB,-1.94679741833775e+000°)
1.69824365246173e+002	(1.47102312728859e-001dB,-1.99333980492418e+000°)
1.73780082874936e+002	(1.54474155698643e-001dB,-2.04105353524146e+000°)
1.77827941003891e+002	(1.62198043997430e-001dB,-2.08997234607593e+000°)
1.81970085860997e+002	(1.70291021276205e-001dB,-2.14013124834579e+000°)
1.86208713666286e+002	(1.78770979028595e-001dB,-2.19156659510137e+000°)
1.90546071796323e+002	(1.87656700997336e-001dB,-2.24431615428733e+000°)
1.94984459975803e+002	(1.96967910124921e-001dB,-2.29841918666277e+000°)
1.99526231496887e+002	(2.06725318215262e-001dB,-2.35391652931378e+000°)
2.04173794466952e+002	(2.16950678486240e-001dB,-2.41085068523084e+000°)
2.08929613085403e+002	(2.27666841206903e-001dB,-2.46926591947375e+000°)
2.13796208950222e+002	(2.38897812628686e-001dB,-2.52920836249386e+000°)
2.18776162394954e+002	(2.50668817436762e-001dB,-2.59072612124180e+000°)
2.23872113856832e+002	(2.63006364966072e-001dB,-2.65386939875211e+000°)
2.29086765276776e+002	(2.75938319446845e-001dB,-2.71869062296354e+000°)
2.34422881531991e+002	(2.89493974566587e-001dB,-2.78524458561497e+000°)
2.39883291901947e+002	(3.03704132659949e-001dB,-2.85358859214127e+000°)
2.45470891568501e+002	(3.18601188864455e-001dB,-2.92378262359148e+000°)
2.51188643150956e+002	(3.34219220610100e-001dB,-2.99588951170166e+000°)
2.57039578276885e+002	(3.50594082842682e-001dB,-3.06997512837375e+000°)
2.63026799189536e+002	(3.67763509417212e-001dB,-3.14610859095233e+000°)
2.69153480392690e+002	(3.85767221137368e-001dB,-3.22436248484206e+000°)
2.75422870333815e+002	(4.04647040960580e-001dB,-3.30481310518260e+000°)
2.81838293126443e+002	(4.24447016937345e-001dB,-3.38754071949559e+000°)
2.88403150312659e+002	(4.45213553507294e-001dB,-3.47262985343458e+000°)
2.95120922666637e+002	(4.66995551834784e-001dB,-3.56016960202316e+000°)
3.01995172040200e+002	(4.89844559932840e-001dB,-3.65025396904645e+000°)
3.09029543251357e+002	(5.13814933399850e-001dB,-3.74298223758532e+000°)
3.16227766016836e+002	(5.38964007675474e-001dB,-3.83845937504552e+000°)
3.23593656929626e+002	(5.65352282815335e-001dB,-3.93679647645481e+000°)
3.31131121482589e+002	(5.93043621888029e-001dB,-4.03811125027407e+000°)
3.38844156139200e+002	(6.22105464214295e-001dB,-4.14252855151505e+000°)
3.46736850452529e+002	(6.52609054798455e-001dB,-4.25018096758276e+000°)
3.54813389233573e+002	(6.84629691449784e-001dB,-4.36120946297626e+000°)
3.63078054770099e+002	(7.18246991256070e-001dB,-4.47576408981205e+000°)
3.71535229097170e+002	(7.53545178258580e-001dB,-4.59400477208552e+000°)
3.80189396320558e+002	(7.90613394388484e-001dB,-4.71610217269187e+000°)
3.89045144994278e+002	(8.29546035962795e-001dB,-4.84223865350456e+000°)
3.98107170553494e+002	(8.70443118308749e-001dB,-4.97260934030366e+000°)
4.07380277804110e+002	(9.13410671392237e-001dB,-5.10742330607290e+000°)
4.16869383470332e+002	(9.58561169675602e-001dB,-5.24690488821242e+000°)
4.26579518801589e+002	(1.00601399982805e+000dB,-5.39129515759122e+000°)
4.36515832240163e+002	(1.05589597036657e+000dB,-5.54085356014004e+000°)
4.46683592150960e+002	(1.10834186782592e+000dB,-5.69585975498091e+000°)
4.57088189614872e+002	(1.16349506465189e+000dB,-5.85661567695716e+000°)
4.67735141287195e+002	(1.22150818469722e+000dB,-6.02344785603480e+000°)
4.78630092322635e+002	(1.28254383298720e+000dB,-6.19671003150605e+000°)
4.89778819368443e+002	(1.34677539733017e+000dB,-6.37678610544527e+000°)
5.01187233627268e+002	(1.41438793039703e+000dB,-6.56409348767775e+000°)
5.12861383991361e+002	(1.48557912210754e+000dB,-6.75908689388347e+000°)
5.24807460249769e+002	(1.56056037356769e+000dB,-6.96226266976672e+000°)
5.37031796370249e+002	(1.63955798543669e+000dB,-7.17416372788856e+000°)
5.49540873857620e+002	(1.72281447550166e+000dB,-7.39538520036875e+000°)
